! S-parameter export from POSTFEKO
! Filename: 200mm_no_tilt_sigma_001
! Creation date: 2025-03-03 14:05:19
! 
# Hz S MA R    5.0000000E+01 
  4.0000000E+07     8.0604323E-01    -1.2635690E+02   
  4.1000000E+07     7.9152927E-01    -1.2967108E+02   
  4.2000000E+07     7.7690924E-01    -1.3294163E+02   
  4.3000000E+07     7.6199026E-01    -1.3618734E+02   
  4.4000000E+07     7.4683639E-01    -1.3939541E+02   
  4.5000000E+07     7.3145239E-01    -1.4259405E+02   
  4.6000000E+07     7.1594499E-01    -1.4573927E+02   
  4.7000000E+07     7.0028963E-01    -1.4888386E+02   
  4.8000000E+07     6.8459464E-01    -1.5197881E+02   
  4.9000000E+07     6.6889475E-01    -1.5502848E+02   
  5.0000000E+07     6.5322677E-01    -1.5803988E+02   
  5.1000000E+07     6.3762090E-01    -1.6101882E+02   
  5.2000000E+07     6.2212772E-01    -1.6395755E+02   
  5.3000000E+07     6.0677785E-01    -1.6685361E+02   
  5.4000000E+07     5.9160739E-01    -1.6971002E+02   
  5.5000000E+07     5.7664457E-01    -1.7251874E+02   
  5.6000000E+07     5.6191720E-01    -1.7528255E+02   
  5.7000000E+07     5.4744888E-01    -1.7799923E+02   
  5.8000000E+07     5.3325987E-01     1.7933144E+02   
  5.9000000E+07     5.1937948E-01     1.7670371E+02   
  6.0000000E+07     5.0580031E-01     1.7413001E+02   
  6.1000000E+07     4.9254763E-01     1.7160318E+02   
  6.2000000E+07     4.7963476E-01     1.6911939E+02   
  6.3000000E+07     4.6707392E-01     1.6667643E+02   
  6.4000000E+07     4.5486203E-01     1.6429187E+02   
  6.5000000E+07     4.4331042E-01     1.6193205E+02   
  6.6000000E+07     4.3182707E-01     1.5964565E+02   
  6.7000000E+07     4.2072057E-01     1.5740078E+02   
  6.8000000E+07     4.0997281E-01     1.5521649E+02   
  6.9000000E+07     3.9959368E-01     1.5308320E+02   
  7.0000000E+07     3.8960091E-01     1.5099044E+02   
  7.1000000E+07     3.7998057E-01     1.4894942E+02   
  7.2000000E+07     3.7073083E-01     1.4696053E+02   
  7.3000000E+07     3.6184046E-01     1.4503028E+02   
  7.4000000E+07     3.5334123E-01     1.4314134E+02   
  7.5000000E+07     3.4519601E-01     1.4131317E+02   
  7.6000000E+07     3.3741593E-01     1.3953945E+02   
  7.7000000E+07     3.3001616E-01     1.3781369E+02   
  7.8000000E+07     3.2296267E-01     1.3615067E+02   
  7.9000000E+07     3.1630349E-01     1.3453031E+02   
  8.0000000E+07     3.1001854E-01     1.3296117E+02   
  8.1000000E+07     3.0409717E-01     1.3145218E+02   
  8.2000000E+07     2.9856247E-01     1.2998740E+02   
  8.3000000E+07     2.9337155E-01     1.2858601E+02   
  8.4000000E+07     2.8858466E-01     1.2722652E+02   
  8.5000000E+07     2.8419277E-01     1.2591247E+02   
  8.6000000E+07     2.8017513E-01     1.2465113E+02   
  8.7000000E+07     2.7655826E-01     1.2343283E+02   
  8.8000000E+07     2.7333072E-01     1.2226102E+02   
  8.9000000E+07     2.7052077E-01     1.2112596E+02   
  9.0000000E+07     2.6761455E-01     1.1998744E+02   
  9.1000000E+07     2.6560834E-01     1.1892221E+02   
  9.2000000E+07     2.6405074E-01     1.1787936E+02   
  9.3000000E+07     2.6292049E-01     1.1685971E+02   
  9.4000000E+07     2.6224760E-01     1.1585636E+02   
  9.5000000E+07     2.6202895E-01     1.1486419E+02   
  9.6000000E+07     2.6228617E-01     1.1387316E+02   
  9.7000000E+07     2.6299512E-01     1.1288453E+02   
  9.8000000E+07     2.6419787E-01     1.1188054E+02   
  9.9000000E+07     2.6589418E-01     1.1085878E+02   
  1.0000000E+08     2.6808634E-01     1.0981085E+02   
  1.0100000E+08     2.7079005E-01     1.0872602E+02   
  1.0200000E+08     2.7399180E-01     1.0759987E+02   
  1.0300000E+08     2.7770944E-01     1.0642104E+02   
  1.0400000E+08     2.8193447E-01     1.0518341E+02   
  1.0500000E+08     2.8667299E-01     1.0387846E+02   
  1.0600000E+08     2.9193172E-01     1.0249485E+02   
  1.0700000E+08     2.9766634E-01     1.0103271E+02   
  1.0800000E+08     3.0387668E-01     9.9483064E+01   
  1.0900000E+08     3.1057974E-01     9.7833967E+01   
  1.1000000E+08     3.1771188E-01     9.6086774E+01   
